
T1F8C 000:239 SEGGER J-Link V6.16e Log File (0002ms, 0035ms total)
T1F8C 000:239 DLL Compiled: Jun 27 2017 18:47:05 (0002ms, 0035ms total)
T1F8C 000:239 Logging started @ 2019-10-16 11:01 (0002ms, 0035ms total)
T1F8C 000:241 JLINK_SetWarnOutHandler(...) (0001ms, 0036ms total)
T1F8C 000:242 JLINK_OpenEx(...)
Firmware: J-Link ARM V8 compiled Nov 28 2014 13:44:46
Hardware: V8.00
S/N: 788529293
Feature(s): RDI,FlashDL,FlashBP,JFlash,GDBWEBSRV Webserver running on local port 19080 (0020ms, 0056ms total)
T1F8C 000:242   returns O.K. (0020ms, 0056ms total)
T1F8C 000:262 JLINK_SetErrorOutHandler(...) (0000ms, 0056ms total)
T1F8C 000:262 JLINK_ExecCommand("ProjectFile = "C:\Users\leotan\Desktop\AT32F4xx_StdPeriph_Lib_V1.x.x\Project\AT_START_F403\Examples\XMC\XMC_LCD_8BIT\MDK_v5\JLinkSettings.ini"", ...). C:\Program Files (x86)\SEGGER\JLink_V616e\JLinkDevices.xml evaluated successfully.Device "CORTEX-M4" selected.  returns 0x00 (0110ms, 0166ms total)
T1F8C 000:373 JLINK_ExecCommand("Device = AT32F403ZG", ...). Device "CORTEX-M4" selected.  returns 0x00 (0002ms, 0169ms total)
T1F8C 000:376 JLINK_ExecCommand("DisableConnectionTimeout", ...).   returns 0x01 (0000ms, 0169ms total)
T1F8C 000:376 JLINK_GetHardwareVersion()  returns 0x13880 (0000ms, 0169ms total)
T1F8C 000:376 JLINK_GetDLLVersion()  returns 61605 (0000ms, 0169ms total)
T1F8C 000:376 JLINK_GetFirmwareString(...) (0000ms, 0169ms total)
T1F8C 000:379 JLINK_GetDLLVersion()  returns 61605 (0000ms, 0169ms total)
T1F8C 000:379 JLINK_GetCompileDateTime() (0000ms, 0169ms total)
T1F8C 000:380 JLINK_GetFirmwareString(...) (0000ms, 0169ms total)
T1F8C 000:381 JLINK_GetHardwareVersion()  returns 0x13880 (0000ms, 0169ms total)
T1F8C 000:384 JLINK_TIF_Select(JLINKARM_TIF_JTAG)  returns 0x00 (0006ms, 0175ms total)
T1F8C 000:390 JLINK_SetSpeed(5000) (0001ms, 0176ms total)
T1F8C 000:391 JLINK_GetIdData(...) >0x2F8 JTAG>TotalIRLen = 4, IRPrint = 0x01 >0x30 JTAG> >0x30 JTAG>JTAG chain detection found 1 devices: #0 Id: 0x4BA00477, IRLen: 04, CoreSight JTAG-DPScanning APs, stopping at first AHB-AP found. >0x78 JTAG> >0x48 JTAG> >0x48 JTAG>AP[0] IDR: 0x24770011 (AHB-AP) >0x40 JTAG> >0x48 JTAG> >0x48 JTAG>AHB-AP ROM: 0xE00FF000 (Base addr. of first ROM table) >0x78 JTAG> >0x40 JTAG> >0x30 JTAG> >0x40 JTAG> >0x40 JTAG> >0x30 JTAG> >0x40 JTAG> >0x48 JTAG>
CPUID reg.: 0x410FC241. Implementer code: 0x41 (ARM)Found Cortex-M4 r0p1, Little endian. -- CPU_ReadMem(4 bytes @ 0xE000EDF0) -- CPU_WriteMem(4 bytes @ 0xE000EDF0) -- CPU_ReadMem(4 bytes @ 0xE0002000)FPUnit: 6 code (BP) slots and 2 literal slots -- CPU_ReadMem(4 bytes @ 0xE000EDFC) -- CPU_WriteMem(4 bytes @ 0xE000EDFC) -- CPU_ReadMem(4 bytes @ 0xE0001000) -- CPU_WriteMem(4 bytes @ 0xE0001000) -- CPU_ReadMem(4 bytes @ 0xE000ED88) -- CPU_WriteMem(4 bytes @ 0xE000ED88) -- CPU_ReadMem(4 bytes @ 0xE000ED88)
 -- CPU_WriteMem(4 bytes @ 0xE000ED88)CoreSight components:ROMTbl[0] @ E00FF000 -- CPU_ReadMem(16 bytes @ 0xE00FF000) -- CPU_ReadMem(16 bytes @ 0xE000EFF0) -- CPU_ReadMem(16 bytes @ 0xE000EFE0)ROMTbl[0][0]: E000E000, CID: B105E00D, PID: 000BB00C SCS -- CPU_ReadMem(16 bytes @ 0xE0001FF0) -- CPU_ReadMem(16 bytes @ 0xE0001FE0)ROMTbl[0][1]: E0001000, CID: B105E00D, PID: 003BB002 DWT -- CPU_ReadMem(16 bytes @ 0xE0002FF0) -- CPU_ReadMem(16 bytes @ 0xE0002FE0)
ROMTbl[0][2]: E0002000, CID: B105E00D, PID: 002BB003 FPB -- CPU_ReadMem(16 bytes @ 0xE0000FF0) -- CPU_ReadMem(16 bytes @ 0xE0000FE0)ROMTbl[0][3]: E0000000, CID: B105E00D, PID: 003BB001 ITM -- CPU_ReadMem(16 bytes @ 0xE00FF010) -- CPU_ReadMem(16 bytes @ 0xE0040FF0) -- CPU_ReadMem(16 bytes @ 0xE0040FE0)ROMTbl[0][4]: E0040000, CID: B105900D, PID: 000BB9A1 TPIU -- CPU_ReadMem(16 bytes @ 0xE0041FF0) -- CPU_ReadMem(16 bytes @ 0xE0041FE0)ROMTbl[0][5]: E0041000, CID: B105900D, PID: 000BB925 ETM ScanLen=4
 NumDevices=1 aId[0]=0x4BA00477 aIrRead[0]=0 aScanLen[0]=0 aScanRead[0]=0 (0066ms, 0242ms total)
T1F8C 000:457 JLINK_JTAG_GetDeviceID(DeviceIndex = 0)  returns 0x4BA00477 (0000ms, 0242ms total)
T1F8C 000:457 JLINK_JTAG_GetDeviceInfo(DeviceIndex = 0)  returns 0x00 (0000ms, 0242ms total)
T1F8C 000:457 JLINK_GetDLLVersion()  returns 61605 (0000ms, 0242ms total)
T1F8C 000:457 JLINK_CORE_GetFound()  returns 0xE0000FF (0000ms, 0242ms total)
T1F8C 000:457 JLINK_GetDebugInfo(0x100 = JLINKARM_ROM_TABLE_ADDR_INDEX) -- Value=0xE00FF000  returns 0x00 (0000ms, 0242ms total)
T1F8C 000:458 JLINK_GetDebugInfo(0x100 = JLINKARM_ROM_TABLE_ADDR_INDEX) -- Value=0xE00FF000  returns 0x00 (0000ms, 0242ms total)
T1F8C 000:458 JLINK_GetDebugInfo(0x101 = JLINKARM_DEBUG_INFO_ETM_ADDR_INDEX) -- Value=0xE0041000  returns 0x00 (0000ms, 0242ms total)
T1F8C 000:458 JLINK_GetDebugInfo(0x102 = JLINKARM_DEBUG_INFO_MTB_ADDR_INDEX) -- Value=0x00000000  returns 0x00 (0000ms, 0242ms total)
T1F8C 000:458 JLINK_GetDebugInfo(0x103 = JLINKARM_DEBUG_INFO_TPIU_ADDR_INDEX) -- Value=0xE0040000  returns 0x00 (0000ms, 0242ms total)
T1F8C 000:458 JLINK_GetDebugInfo(0x104 = JLINKARM_DEBUG_INFO_ITM_ADDR_INDEX) -- Value=0xE0000000  returns 0x00 (0000ms, 0242ms total)
T1F8C 000:458 JLINK_GetDebugInfo(0x105 = JLINKARM_DEBUG_INFO_DWT_ADDR_INDEX) -- Value=0xE0001000  returns 0x00 (0000ms, 0242ms total)
T1F8C 000:458 JLINK_GetDebugInfo(0x106 = JLINKARM_DEBUG_INFO_FPB_ADDR_INDEX) -- Value=0xE0002000  returns 0x00 (0000ms, 0242ms total)
T1F8C 000:458 JLINK_GetDebugInfo(0x107 = JLINKARM_DEBUG_INFO_NVIC_ADDR_INDEX) -- Value=0xE000E000  returns 0x00 (0000ms, 0242ms total)
T1F8C 000:459 JLINK_GetDebugInfo(0x10C = JLINKARM_DEBUG_INFO_DBG_ADDR_INDEX) -- Value=0xE000EDF0  returns 0x00 (0000ms, 0243ms total)
T1F8C 000:459 JLINK_ReadMemU32(0xE000EF40, 0x0001 Items, ...) -- CPU_ReadMem(4 bytes @ 0xE000EF40) - Data: 21 00 11 10  returns 0x01 (0001ms, 0244ms total)
T1F8C 000:460 JLINK_ReadMemU32(0xE000EF44, 0x0001 Items, ...) -- CPU_ReadMem(4 bytes @ 0xE000EF44) - Data: 11 00 00 11  returns 0x01 (0001ms, 0245ms total)
T1F8C 000:461 JLINK_ReadMemU32(0xE000ED00, 0x0001 Items, ...) -- CPU_ReadMem(4 bytes @ 0xE000ED00) - Data: 41 C2 0F 41  returns 0x01 (0001ms, 0246ms total)
T1F8C 000:462 JLINK_SetResetType(JLINKARM_CM3_RESET_TYPE_NORMAL)  returns JLINKARM_CM3_RESET_TYPE_NORMAL (0000ms, 0246ms total)
T1F8C 000:462 JLINK_Reset() -- CPU is running -- CPU_WriteMem(4 bytes @ 0xE000EDF0) -- CPU is running -- CPU_WriteMem(4 bytes @ 0xE000EDFC)Setting AIRCR.SYSRESETREQ -- CPU is running -- CPU_WriteMem(4 bytes @ 0xE000ED0C) -- CPU_ReadMem(4 bytes @ 0xE000ED0C) -- CPU_ReadMem(4 bytes @ 0xE000EDF0) -- CPU_ReadMem(4 bytes @ 0xE000EDF0) -- CPU_ReadMem(4 bytes @ 0xE000EDF0) -- CPU is running -- CPU_WriteMem(4 bytes @ 0xE000EDF0) -- CPU is running -- CPU_WriteMem(4 bytes @ 0xE000EDFC)
 -- CPU_ReadMem(4 bytes @ 0xE000EDF0) >0x78 JTAG> >0x40 JTAG> >0x30 JTAG> >0x40 JTAG> >0x48 JTAG> >0x40 JTAG> -- CPU_WriteMem(4 bytes @ 0xE000EDFC) -- CPU_WriteMem(4 bytes @ 0xE0001028) -- CPU_WriteMem(4 bytes @ 0xE0001038) -- CPU_WriteMem(4 bytes @ 0xE0001048) -- CPU_WriteMem(4 bytes @ 0xE0001058) -- CPU_WriteMem(4 bytes @ 0xE0002000) -- CPU_ReadMem(4 bytes @ 0xE000EDFC) -- CPU_ReadMem(4 bytes @ 0xE0001000) (0090ms, 0336ms total)
T1F8C 000:553 JLINK_Halt()  returns 0x00 (0000ms, 0336ms total)
T1F8C 000:553 JLINK_IsHalted()  returns TRUE (0000ms, 0336ms total)
T1F8C 000:553 JLINK_ReadMemU32(0xE000EDF0, 0x0001 Items, ...) -- CPU_ReadMem(4 bytes @ 0xE000EDF0) - Data: 03 00 03 00  returns 0x01 (0002ms, 0338ms total)
T1F8C 000:555 JLINK_WriteU32(0xE000EDF0, 0xA05F0003) -- CPU_WriteMem(4 bytes @ 0xE000EDF0)  returns 0x00 (0001ms, 0339ms total)
T1F8C 000:556 JLINK_WriteU32(0xE000EDFC, 0x01000000) -- CPU_WriteMem(4 bytes @ 0xE000EDFC)  returns 0x00 (0001ms, 0340ms total)
T1F8C 000:570 JLINK_GetHWStatus(...)  returns 0x00 (0002ms, 0342ms total)
T1F8C 000:589 JLINK_GetNumBPUnits(Type = 0xFFFFFF00)  returns 0x06 (0000ms, 0342ms total)
T1F8C 000:589 JLINK_GetNumBPUnits(Type = 0xF0)  returns 0x2000 (0000ms, 0342ms total)
T1F8C 000:589 JLINK_GetNumWPUnits()  returns 0x04 (0000ms, 0342ms total)
T1F8C 000:593 JLINK_GetSpeed()  returns 0x12C0 (0000ms, 0342ms total)
T1F8C 000:595 JLINK_ReadMemU32(0xE000E004, 0x0001 Items, ...) -- CPU_ReadMem(4 bytes @ 0xE000E004) - Data: 02 00 00 00  returns 0x01 (0002ms, 0344ms total)
T1F8C 000:597 JLINK_ReadMemU32(0xE000E004, 0x0001 Items, ...) -- CPU_ReadMem(4 bytes @ 0xE000E004) - Data: 02 00 00 00  returns 0x01 (0001ms, 0345ms total)
T1F8C 000:598 JLINK_WriteMem(0xE0001000, 0x001C Bytes, ...) - Data: 01 00 00 00 00 00 00 00 00 00 00 00 00 00 00 00 ... -- CPU_WriteMem(28 bytes @ 0xE0001000)  returns 0x1C (0002ms, 0347ms total)
T1F8C 000:600 JLINK_ReadMem (0xE0001000, 0x001C Bytes, ...) -- CPU_ReadMem(28 bytes @ 0xE0001000) - Data: 01 00 00 40 00 00 00 00 00 00 00 00 00 00 00 00 ...  returns 0x00 (0001ms, 0348ms total)
T1F8C 000:601 JLINK_Halt()  returns 0x00 (0000ms, 0348ms total)
T1F8C 000:601 JLINK_IsHalted()  returns TRUE (0000ms, 0348ms total)
T1F8C 000:603 JLINK_WriteMem(0x20000000, 0x02B8 Bytes, ...) - Data: 00 BE 0A E0 0D 78 2D 06 68 40 08 24 40 00 00 D3 ... -- CPU_WriteMem(696 bytes @ 0x20000000)  returns 0x2B8 (0006ms, 0354ms total)
T1F8C 000:609 JLINK_WriteReg(R0, 0x08000000)  returns 0x00 (0000ms, 0354ms total)
T1F8C 000:609 JLINK_WriteReg(R1, 0x00B71B00)  returns 0x00 (0000ms, 0354ms total)
T1F8C 000:609 JLINK_WriteReg(R2, 0x00000001)  returns 0x00 (0000ms, 0354ms total)
T1F8C 000:609 JLINK_WriteReg(R3, 0x00000000)  returns 0x00 (0000ms, 0354ms total)
T1F8C 000:609 JLINK_WriteReg(R4, 0x00000000)  returns 0x00 (0000ms, 0354ms total)
T1F8C 000:609 JLINK_WriteReg(R5, 0x00000000)  returns 0x00 (0000ms, 0354ms total)
T1F8C 000:609 JLINK_WriteReg(R6, 0x00000000)  returns 0x00 (0000ms, 0354ms total)
T1F8C 000:609 JLINK_WriteReg(R7, 0x00000000)  returns 0x00 (0000ms, 0354ms total)
T1F8C 000:609 JLINK_WriteReg(R8, 0x00000000)  returns 0x00 (0000ms, 0354ms total)
T1F8C 000:609 JLINK_WriteReg(R9, 0x200002B4)  returns 0x00 (0001ms, 0355ms total)
T1F8C 000:610 JLINK_WriteReg(R10, 0x00000000)  returns 0x00 (0000ms, 0355ms total)
T1F8C 000:610 JLINK_WriteReg(R11, 0x00000000)  returns 0x00 (0000ms, 0355ms total)
T1F8C 000:610 JLINK_WriteReg(R12, 0x00000000)  returns 0x00 (0000ms, 0355ms total)
T1F8C 000:610 JLINK_WriteReg(R13 (SP), 0x20001000)  returns 0x00 (0000ms, 0355ms total)
T1F8C 000:610 JLINK_WriteReg(R14, 0x20000001)  returns 0x00 (0000ms, 0355ms total)
T1F8C 000:610 JLINK_WriteReg(R15 (PC), 0x20000038)  returns 0x00 (0000ms, 0355ms total)
T1F8C 000:610 JLINK_WriteReg(XPSR, 0x01000000)  returns 0x00 (0000ms, 0355ms total)
T1F8C 000:610 JLINK_WriteReg(MSP, 0x20001000)  returns 0x00 (0000ms, 0355ms total)
T1F8C 000:610 JLINK_WriteReg(PSP, 0x20001000)  returns 0x00 (0000ms, 0355ms total)
T1F8C 000:610 JLINK_WriteReg(CFBP, 0x00000000)  returns 0x00 (0000ms, 0355ms total)
T1F8C 000:610 JLINK_SetBPEx(Addr = 0x20000000, Type = 0xFFFFFFF2) -- CPU_ReadMem(4 bytes @ 0x20000000) -- CPU_WriteMem(4 bytes @ 0x20000000) -- CPU_ReadMem(4 bytes @ 0x20000000) -- CPU_WriteMem(4 bytes @ 0x20000000) -- CPU_ReadMem(2 bytes @ 0x20000000)  returns 0x00000001 (0005ms, 0360ms total)
T1F8C 000:615 JLINK_Go() -- CPU_WriteMem(2 bytes @ 0x20000000) -- CPU_ReadMem(4 bytes @ 0xE0001000) -- CPU_WriteMem(4 bytes @ 0xE0002008) -- CPU_WriteMem(4 bytes @ 0xE000200C) -- CPU_WriteMem(4 bytes @ 0xE0002010) -- CPU_WriteMem(4 bytes @ 0xE0002014) -- CPU_WriteMem(4 bytes @ 0xE0002018) -- CPU_WriteMem(4 bytes @ 0xE000201C) -- CPU_WriteMem(4 bytes @ 0xE0001004) (0012ms, 0372ms total)
T1F8C 000:627 JLINK_IsHalted() -- CPU_ReadMem(2 bytes @ 0x20000000)  returns TRUE (0005ms, 0377ms total)
T1F8C 000:632 JLINK_ReadReg(R15 (PC))  returns 0x20000000 (0000ms, 0372ms total)
T1F8C 000:632 JLINK_ClrBPEx(BPHandle = 0x00000001)  returns 0x00 (0000ms, 0372ms total)
T1F8C 000:632 JLINK_ReadReg(R0)  returns 0x00000000 (0000ms, 0372ms total)
T1F8C 000:632 JLINK_WriteReg(R0, 0x08000000)  returns 0x00 (0000ms, 0372ms total)
T1F8C 000:632 JLINK_WriteReg(R1, 0x00000800)  returns 0x00 (0000ms, 0372ms total)
T1F8C 000:632 JLINK_WriteReg(R2, 0x000000FF)  returns 0x00 (0001ms, 0373ms total)
T1F8C 000:633 JLINK_WriteReg(R3, 0x00000000)  returns 0x00 (0000ms, 0373ms total)
T1F8C 000:633 JLINK_WriteReg(R4, 0x00000000)  returns 0x00 (0000ms, 0373ms total)
T1F8C 000:633 JLINK_WriteReg(R5, 0x00000000)  returns 0x00 (0000ms, 0373ms total)
T1F8C 000:633 JLINK_WriteReg(R6, 0x00000000)  returns 0x00 (0000ms, 0373ms total)
T1F8C 000:633 JLINK_WriteReg(R7, 0x00000000)  returns 0x00 (0000ms, 0373ms total)
T1F8C 000:633 JLINK_WriteReg(R8, 0x00000000)  returns 0x00 (0000ms, 0373ms total)
T1F8C 000:633 JLINK_WriteReg(R9, 0x200002B4)  returns 0x00 (0000ms, 0373ms total)
T1F8C 000:633 JLINK_WriteReg(R10, 0x00000000)  returns 0x00 (0000ms, 0373ms total)
T1F8C 000:633 JLINK_WriteReg(R11, 0x00000000)  returns 0x00 (0000ms, 0373ms total)
T1F8C 000:633 JLINK_WriteReg(R12, 0x00000000)  returns 0x00 (0000ms, 0373ms total)
T1F8C 000:633 JLINK_WriteReg(R13 (SP), 0x20001000)  returns 0x00 (0000ms, 0373ms total)
T1F8C 000:633 JLINK_WriteReg(R14, 0x20000001)  returns 0x00 (0000ms, 0373ms total)
T1F8C 000:633 JLINK_WriteReg(R15 (PC), 0x20000020)  returns 0x00 (0000ms, 0373ms total)
T1F8C 000:633 JLINK_WriteReg(XPSR, 0x01000000)  returns 0x00 (0000ms, 0373ms total)
T1F8C 000:633 JLINK_WriteReg(MSP, 0x20001000)  returns 0x00 (0000ms, 0373ms total)
T1F8C 000:633 JLINK_WriteReg(PSP, 0x20001000)  returns 0x00 (0000ms, 0373ms total)
T1F8C 000:633 JLINK_WriteReg(CFBP, 0x00000000)  returns 0x00 (0000ms, 0373ms total)
T1F8C 000:633 JLINK_SetBPEx(Addr = 0x20000000, Type = 0xFFFFFFF2)  returns 0x00000002 (0000ms, 0373ms total)
T1F8C 000:633 JLINK_Go() -- CPU_ReadMem(4 bytes @ 0xE0001000) (0003ms, 0376ms total)
T1F8C 000:637 JLINK_IsHalted() -- CPU_ReadMem(2 bytes @ 0x20000000)  returns TRUE (0004ms, 0381ms total)
T1F8C 000:641 JLINK_ReadReg(R15 (PC))  returns 0x20000000 (0000ms, 0377ms total)
T1F8C 000:641 JLINK_ClrBPEx(BPHandle = 0x00000002)  returns 0x00 (0000ms, 0377ms total)
T1F8C 000:641 JLINK_ReadReg(R0)  returns 0x00000001 (0000ms, 0377ms total)
T1F8C 000:641 JLINK_WriteReg(R0, 0x08000000)  returns 0x00 (0000ms, 0377ms total)
T1F8C 000:641 JLINK_WriteReg(R1, 0x00000800)  returns 0x00 (0000ms, 0377ms total)
T1F8C 000:641 JLINK_WriteReg(R2, 0x000000FF)  returns 0x00 (0000ms, 0377ms total)
T1F8C 000:641 JLINK_WriteReg(R3, 0x00000000)  returns 0x00 (0000ms, 0377ms total)
T1F8C 000:641 JLINK_WriteReg(R4, 0x00000000)  returns 0x00 (0000ms, 0377ms total)
T1F8C 000:641 JLINK_WriteReg(R5, 0x00000000)  returns 0x00 (0000ms, 0377ms total)
T1F8C 000:641 JLINK_WriteReg(R6, 0x00000000)  returns 0x00 (0000ms, 0377ms total)
T1F8C 000:641 JLINK_WriteReg(R7, 0x00000000)  returns 0x00 (0000ms, 0377ms total)
T1F8C 000:641 JLINK_WriteReg(R8, 0x00000000)  returns 0x00 (0000ms, 0377ms total)
T1F8C 000:641 JLINK_WriteReg(R9, 0x200002B4)  returns 0x00 (0000ms, 0377ms total)
T1F8C 000:641 JLINK_WriteReg(R10, 0x00000000)  returns 0x00 (0001ms, 0378ms total)
T1F8C 000:642 JLINK_WriteReg(R11, 0x00000000)  returns 0x00 (0000ms, 0378ms total)
T1F8C 000:642 JLINK_WriteReg(R12, 0x00000000)  returns 0x00 (0000ms, 0378ms total)
T1F8C 000:642 JLINK_WriteReg(R13 (SP), 0x20001000)  returns 0x00 (0000ms, 0378ms total)
T1F8C 000:642 JLINK_WriteReg(R14, 0x20000001)  returns 0x00 (0000ms, 0378ms total)
T1F8C 000:642 JLINK_WriteReg(R15 (PC), 0x20000126)  returns 0x00 (0000ms, 0378ms total)
T1F8C 000:642 JLINK_WriteReg(XPSR, 0x01000000)  returns 0x00 (0000ms, 0378ms total)
T1F8C 000:642 JLINK_WriteReg(MSP, 0x20001000)  returns 0x00 (0000ms, 0378ms total)
T1F8C 000:642 JLINK_WriteReg(PSP, 0x20001000)  returns 0x00 (0000ms, 0378ms total)
T1F8C 000:642 JLINK_WriteReg(CFBP, 0x00000000)  returns 0x00 (0000ms, 0378ms total)
T1F8C 000:642 JLINK_SetBPEx(Addr = 0x20000000, Type = 0xFFFFFFF2)  returns 0x00000003 (0000ms, 0378ms total)
T1F8C 000:642 JLINK_Go() -- CPU_ReadMem(4 bytes @ 0xE0001000) (0003ms, 0381ms total)
T1F8C 000:645 JLINK_IsHalted()  returns FALSE (0001ms, 0382ms total)
T1F8C 000:680 JLINK_IsHalted()  returns FALSE (0001ms, 0382ms total)
T1F8C 000:682 JLINK_IsHalted() -- CPU_ReadMem(2 bytes @ 0x20000000)  returns TRUE (0005ms, 0386ms total)
T1F8C 000:687 JLINK_ReadReg(R15 (PC))  returns 0x20000000 (0000ms, 0381ms total)
T1F8C 000:687 JLINK_ClrBPEx(BPHandle = 0x00000003)  returns 0x00 (0000ms, 0381ms total)
T1F8C 000:687 JLINK_ReadReg(R0)  returns 0x00000000 (0000ms, 0381ms total)
T1F8C 000:688 JLINK_WriteReg(R0, 0x08000800)  returns 0x00 (0000ms, 0381ms total)
T1F8C 000:688 JLINK_WriteReg(R1, 0x00000800)  returns 0x00 (0000ms, 0381ms total)
T1F8C 000:688 JLINK_WriteReg(R2, 0x000000FF)  returns 0x00 (0000ms, 0381ms total)
T1F8C 000:688 JLINK_WriteReg(R3, 0x00000000)  returns 0x00 (0000ms, 0381ms total)
T1F8C 000:688 JLINK_WriteReg(R4, 0x00000000)  returns 0x00 (0000ms, 0381ms total)
T1F8C 000:688 JLINK_WriteReg(R5, 0x00000000)  returns 0x00 (0000ms, 0381ms total)
T1F8C 000:688 JLINK_WriteReg(R6, 0x00000000)  returns 0x00 (0000ms, 0381ms total)
T1F8C 000:688 JLINK_WriteReg(R7, 0x00000000)  returns 0x00 (0000ms, 0381ms total)
T1F8C 000:688 JLINK_WriteReg(R8, 0x00000000)  returns 0x00 (0000ms, 0381ms total)
T1F8C 000:688 JLINK_WriteReg(R9, 0x200002B4)  returns 0x00 (0000ms, 0381ms total)
T1F8C 000:688 JLINK_WriteReg(R10, 0x00000000)  returns 0x00 (0000ms, 0381ms total)
T1F8C 000:688 JLINK_WriteReg(R11, 0x00000000)  returns 0x00 (0000ms, 0381ms total)
T1F8C 000:688 JLINK_WriteReg(R12, 0x00000000)  returns 0x00 (0000ms, 0381ms total)
T1F8C 000:688 JLINK_WriteReg(R13 (SP), 0x20001000)  returns 0x00 (0000ms, 0381ms total)
T1F8C 000:688 JLINK_WriteReg(R14, 0x20000001)  returns 0x00 (0000ms, 0381ms total)
T1F8C 000:688 JLINK_WriteReg(R15 (PC), 0x20000020)  returns 0x00 (0000ms, 0381ms total)
T1F8C 000:689 JLINK_WriteReg(XPSR, 0x01000000)  returns 0x00 (0000ms, 0382ms total)
T1F8C 000:689 JLINK_WriteReg(MSP, 0x20001000)  returns 0x00 (0000ms, 0382ms total)
T1F8C 000:689 JLINK_WriteReg(PSP, 0x20001000)  returns 0x00 (0000ms, 0382ms total)
T1F8C 000:689 JLINK_WriteReg(CFBP, 0x00000000)  returns 0x00 (0000ms, 0382ms total)
T1F8C 000:689 JLINK_SetBPEx(Addr = 0x20000000, Type = 0xFFFFFFF2)  returns 0x00000004 (0000ms, 0382ms total)
T1F8C 000:689 JLINK_Go() -- CPU_ReadMem(4 bytes @ 0xE0001000) (0003ms, 0385ms total)
T1F8C 000:692 JLINK_IsHalted() -- CPU_ReadMem(2 bytes @ 0x20000000)  returns TRUE (0005ms, 0390ms total)
T1F8C 000:697 JLINK_ReadReg(R15 (PC))  returns 0x20000000 (0000ms, 0385ms total)
T1F8C 000:697 JLINK_ClrBPEx(BPHandle = 0x00000004)  returns 0x00 (0000ms, 0385ms total)
T1F8C 000:697 JLINK_ReadReg(R0)  returns 0x00000001 (0000ms, 0385ms total)
T1F8C 000:697 JLINK_WriteReg(R0, 0x08000800)  returns 0x00 (0000ms, 0385ms total)
T1F8C 000:697 JLINK_WriteReg(R1, 0x00000800)  returns 0x00 (0000ms, 0385ms total)
T1F8C 000:697 JLINK_WriteReg(R2, 0x000000FF)  returns 0x00 (0000ms, 0385ms total)
T1F8C 000:697 JLINK_WriteReg(R3, 0x00000000)  returns 0x00 (0000ms, 0385ms total)
T1F8C 000:697 JLINK_WriteReg(R4, 0x00000000)  returns 0x00 (0000ms, 0385ms total)
T1F8C 000:697 JLINK_WriteReg(R5, 0x00000000)  returns 0x00 (0000ms, 0385ms total)
T1F8C 000:697 JLINK_WriteReg(R6, 0x00000000)  returns 0x00 (0000ms, 0385ms total)
T1F8C 000:697 JLINK_WriteReg(R7, 0x00000000)  returns 0x00 (0000ms, 0385ms total)
T1F8C 000:697 JLINK_WriteReg(R8, 0x00000000)  returns 0x00 (0000ms, 0385ms total)
T1F8C 000:697 JLINK_WriteReg(R9, 0x200002B4)  returns 0x00 (0000ms, 0385ms total)
T1F8C 000:697 JLINK_WriteReg(R10, 0x00000000)  returns 0x00 (0000ms, 0385ms total)
T1F8C 000:698 JLINK_WriteReg(R11, 0x00000000)  returns 0x00 (0000ms, 0386ms total)
T1F8C 000:698 JLINK_WriteReg(R12, 0x00000000)  returns 0x00 (0000ms, 0386ms total)
T1F8C 000:698 JLINK_WriteReg(R13 (SP), 0x20001000)  returns 0x00 (0000ms, 0386ms total)
T1F8C 000:698 JLINK_WriteReg(R14, 0x20000001)  returns 0x00 (0000ms, 0386ms total)
T1F8C 000:698 JLINK_WriteReg(R15 (PC), 0x20000126)  returns 0x00 (0000ms, 0386ms total)
T1F8C 000:698 JLINK_WriteReg(XPSR, 0x01000000)  returns 0x00 (0000ms, 0386ms total)
T1F8C 000:698 JLINK_WriteReg(MSP, 0x20001000)  returns 0x00 (0000ms, 0386ms total)
T1F8C 000:698 JLINK_WriteReg(PSP, 0x20001000)  returns 0x00 (0000ms, 0386ms total)
T1F8C 000:698 JLINK_WriteReg(CFBP, 0x00000000)  returns 0x00 (0000ms, 0386ms total)
T1F8C 000:698 JLINK_SetBPEx(Addr = 0x20000000, Type = 0xFFFFFFF2)  returns 0x00000005 (0000ms, 0386ms total)
T1F8C 000:698 JLINK_Go() -- CPU_ReadMem(4 bytes @ 0xE0001000) (0003ms, 0389ms total)
T1F8C 000:701 JLINK_IsHalted()  returns FALSE (0001ms, 0390ms total)
T1F8C 000:705 JLINK_IsHalted()  returns FALSE (0001ms, 0390ms total)
T1F8C 000:707 JLINK_IsHalted()  returns FALSE (0001ms, 0390ms total)
T1F8C 000:711 JLINK_IsHalted()  returns FALSE (0001ms, 0390ms total)
T1F8C 000:713 JLINK_IsHalted()  returns FALSE (0001ms, 0390ms total)
T1F8C 000:715 JLINK_IsHalted()  returns FALSE (0001ms, 0390ms total)
T1F8C 000:717 JLINK_IsHalted()  returns FALSE (0001ms, 0390ms total)
T1F8C 000:719 JLINK_IsHalted()  returns FALSE (0001ms, 0390ms total)
T1F8C 000:721 JLINK_IsHalted()  returns FALSE (0001ms, 0390ms total)
T1F8C 000:723 JLINK_IsHalted()  returns FALSE (0001ms, 0390ms total)
T1F8C 000:725 JLINK_IsHalted()  returns FALSE (0001ms, 0390ms total)
T1F8C 000:727 JLINK_IsHalted()  returns FALSE (0001ms, 0390ms total)
T1F8C 000:729 JLINK_IsHalted()  returns FALSE (0001ms, 0390ms total)
T1F8C 000:731 JLINK_IsHalted() -- CPU_ReadMem(2 bytes @ 0x20000000)  returns TRUE (0005ms, 0394ms total)
T1F8C 000:736 JLINK_ReadReg(R15 (PC))  returns 0x20000000 (0000ms, 0389ms total)
T1F8C 000:736 JLINK_ClrBPEx(BPHandle = 0x00000005)  returns 0x00 (0000ms, 0389ms total)
T1F8C 000:736 JLINK_ReadReg(R0)  returns 0x00000000 (0000ms, 0389ms total)
T1F8C 000:737 JLINK_WriteReg(R0, 0x08001000)  returns 0x00 (0000ms, 0389ms total)
T1F8C 000:737 JLINK_WriteReg(R1, 0x00000800)  returns 0x00 (0000ms, 0389ms total)
T1F8C 000:737 JLINK_WriteReg(R2, 0x000000FF)  returns 0x00 (0000ms, 0389ms total)
T1F8C 000:737 JLINK_WriteReg(R3, 0x00000000)  returns 0x00 (0000ms, 0389ms total)
T1F8C 000:737 JLINK_WriteReg(R4, 0x00000000)  returns 0x00 (0000ms, 0389ms total)
T1F8C 000:737 JLINK_WriteReg(R5, 0x00000000)  returns 0x00 (0000ms, 0389ms total)
T1F8C 000:737 JLINK_WriteReg(R6, 0x00000000)  returns 0x00 (0000ms, 0389ms total)
T1F8C 000:737 JLINK_WriteReg(R7, 0x00000000)  returns 0x00 (0000ms, 0389ms total)
T1F8C 000:737 JLINK_WriteReg(R8, 0x00000000)  returns 0x00 (0000ms, 0389ms total)
T1F8C 000:737 JLINK_WriteReg(R9, 0x200002B4)  returns 0x00 (0000ms, 0389ms total)
T1F8C 000:737 JLINK_WriteReg(R10, 0x00000000)  returns 0x00 (0000ms, 0389ms total)
T1F8C 000:737 JLINK_WriteReg(R11, 0x00000000)  returns 0x00 (0000ms, 0389ms total)
T1F8C 000:737 JLINK_WriteReg(R12, 0x00000000)  returns 0x00 (0000ms, 0389ms total)
T1F8C 000:737 JLINK_WriteReg(R13 (SP), 0x20001000)  returns 0x00 (0000ms, 0389ms total)
T1F8C 000:737 JLINK_WriteReg(R14, 0x20000001)  returns 0x00 (0001ms, 0390ms total)
T1F8C 000:738 JLINK_WriteReg(R15 (PC), 0x20000020)  returns 0x00 (0000ms, 0390ms total)
T1F8C 000:738 JLINK_WriteReg(XPSR, 0x01000000)  returns 0x00 (0000ms, 0390ms total)
T1F8C 000:738 JLINK_WriteReg(MSP, 0x20001000)  returns 0x00 (0000ms, 0390ms total)
T1F8C 000:738 JLINK_WriteReg(PSP, 0x20001000)  returns 0x00 (0000ms, 0390ms total)
T1F8C 000:738 JLINK_WriteReg(CFBP, 0x00000000)  returns 0x00 (0000ms, 0390ms total)
T1F8C 000:738 JLINK_SetBPEx(Addr = 0x20000000, Type = 0xFFFFFFF2)  returns 0x00000006 (0000ms, 0390ms total)
T1F8C 000:738 JLINK_Go() -- CPU_ReadMem(4 bytes @ 0xE0001000) (0003ms, 0393ms total)
T1F8C 000:741 JLINK_IsHalted() -- CPU_ReadMem(2 bytes @ 0x20000000)  returns TRUE (0005ms, 0398ms total)
T1F8C 000:746 JLINK_ReadReg(R15 (PC))  returns 0x20000000 (0000ms, 0393ms total)
T1F8C 000:746 JLINK_ClrBPEx(BPHandle = 0x00000006)  returns 0x00 (0000ms, 0393ms total)
T1F8C 000:746 JLINK_ReadReg(R0)  returns 0x00000001 (0000ms, 0393ms total)
T1F8C 000:746 JLINK_WriteReg(R0, 0x08001000)  returns 0x00 (0000ms, 0393ms total)
T1F8C 000:746 JLINK_WriteReg(R1, 0x00000800)  returns 0x00 (0000ms, 0393ms total)
T1F8C 000:746 JLINK_WriteReg(R2, 0x000000FF)  returns 0x00 (0001ms, 0394ms total)
T1F8C 000:747 JLINK_WriteReg(R3, 0x00000000)  returns 0x00 (0000ms, 0394ms total)
T1F8C 000:747 JLINK_WriteReg(R4, 0x00000000)  returns 0x00 (0000ms, 0394ms total)
T1F8C 000:747 JLINK_WriteReg(R5, 0x00000000)  returns 0x00 (0000ms, 0394ms total)
T1F8C 000:747 JLINK_WriteReg(R6, 0x00000000)  returns 0x00 (0000ms, 0394ms total)
T1F8C 000:747 JLINK_WriteReg(R7, 0x00000000)  returns 0x00 (0000ms, 0394ms total)
T1F8C 000:747 JLINK_WriteReg(R8, 0x00000000)  returns 0x00 (0000ms, 0394ms total)
T1F8C 000:747 JLINK_WriteReg(R9, 0x200002B4)  returns 0x00 (0000ms, 0394ms total)
T1F8C 000:747 JLINK_WriteReg(R10, 0x00000000)  returns 0x00 (0000ms, 0394ms total)
T1F8C 000:747 JLINK_WriteReg(R11, 0x00000000)  returns 0x00 (0000ms, 0394ms total)
T1F8C 000:747 JLINK_WriteReg(R12, 0x00000000)  returns 0x00 (0000ms, 0394ms total)
T1F8C 000:747 JLINK_WriteReg(R13 (SP), 0x20001000)  returns 0x00 (0000ms, 0394ms total)
T1F8C 000:747 JLINK_WriteReg(R14, 0x20000001)  returns 0x00 (0000ms, 0394ms total)
T1F8C 000:747 JLINK_WriteReg(R15 (PC), 0x20000126)  returns 0x00 (0000ms, 0394ms total)
T1F8C 000:747 JLINK_WriteReg(XPSR, 0x01000000)  returns 0x00 (0001ms, 0395ms total)
T1F8C 000:748 JLINK_WriteReg(MSP, 0x20001000)  returns 0x00 (0000ms, 0395ms total)
T1F8C 000:748 JLINK_WriteReg(PSP, 0x20001000)  returns 0x00 (0000ms, 0395ms total)
T1F8C 000:748 JLINK_WriteReg(CFBP, 0x00000000)  returns 0x00 (0000ms, 0395ms total)
T1F8C 000:748 JLINK_SetBPEx(Addr = 0x20000000, Type = 0xFFFFFFF2)  returns 0x00000007 (0000ms, 0395ms total)
T1F8C 000:748 JLINK_Go() -- CPU_ReadMem(4 bytes @ 0xE0001000) (0003ms, 0398ms total)
T1F8C 000:751 JLINK_IsHalted()  returns FALSE (0002ms, 0400ms total)
T1F8C 000:754 JLINK_IsHalted()  returns FALSE (0001ms, 0399ms total)
T1F8C 000:756 JLINK_IsHalted()  returns FALSE (0001ms, 0399ms total)
T1F8C 000:760 JLINK_IsHalted()  returns FALSE (0001ms, 0399ms total)
T1F8C 000:762 JLINK_IsHalted()  returns FALSE (0001ms, 0399ms total)
T1F8C 000:764 JLINK_IsHalted()  returns FALSE (0001ms, 0399ms total)
T1F8C 000:766 JLINK_IsHalted()  returns FALSE (0001ms, 0399ms total)
T1F8C 000:768 JLINK_IsHalted()  returns FALSE (0001ms, 0399ms total)
T1F8C 000:770 JLINK_IsHalted()  returns FALSE (0001ms, 0399ms total)
T1F8C 000:774 JLINK_IsHalted()  returns FALSE (0001ms, 0399ms total)
T1F8C 000:776 JLINK_IsHalted()  returns FALSE (0001ms, 0399ms total)
T1F8C 000:778 JLINK_IsHalted()  returns FALSE (0001ms, 0399ms total)
T1F8C 000:780 JLINK_IsHalted()  returns FALSE (0001ms, 0399ms total)
T1F8C 000:782 JLINK_IsHalted()  returns FALSE (0001ms, 0399ms total)
T1F8C 000:784 JLINK_IsHalted()  returns FALSE (0001ms, 0399ms total)
T1F8C 000:786 JLINK_IsHalted()  returns FALSE (0001ms, 0399ms total)
T1F8C 000:788 JLINK_IsHalted() -- CPU_ReadMem(2 bytes @ 0x20000000)  returns TRUE (0004ms, 0403ms total)
T1F8C 000:792 JLINK_ReadReg(R15 (PC))  returns 0x20000000 (0000ms, 0399ms total)
T1F8C 000:792 JLINK_ClrBPEx(BPHandle = 0x00000007)  returns 0x00 (0000ms, 0399ms total)
T1F8C 000:792 JLINK_ReadReg(R0)  returns 0x00000000 (0000ms, 0399ms total)
T1F8C 000:793 JLINK_WriteReg(R0, 0x08001800)  returns 0x00 (0000ms, 0399ms total)
T1F8C 000:793 JLINK_WriteReg(R1, 0x00000800)  returns 0x00 (0000ms, 0399ms total)
T1F8C 000:793 JLINK_WriteReg(R2, 0x000000FF)  returns 0x00 (0000ms, 0399ms total)
T1F8C 000:793 JLINK_WriteReg(R3, 0x00000000)  returns 0x00 (0000ms, 0399ms total)
T1F8C 000:793 JLINK_WriteReg(R4, 0x00000000)  returns 0x00 (0000ms, 0399ms total)
T1F8C 000:793 JLINK_WriteReg(R5, 0x00000000)  returns 0x00 (0000ms, 0399ms total)
T1F8C 000:793 JLINK_WriteReg(R6, 0x00000000)  returns 0x00 (0000ms, 0399ms total)
T1F8C 000:793 JLINK_WriteReg(R7, 0x00000000)  returns 0x00 (0000ms, 0399ms total)
T1F8C 000:793 JLINK_WriteReg(R8, 0x00000000)  returns 0x00 (0000ms, 0399ms total)
T1F8C 000:793 JLINK_WriteReg(R9, 0x200002B4)  returns 0x00 (0001ms, 0400ms total)
T1F8C 000:794 JLINK_WriteReg(R10, 0x00000000)  returns 0x00 (0000ms, 0400ms total)
T1F8C 000:794 JLINK_WriteReg(R11, 0x00000000)  returns 0x00 (0000ms, 0400ms total)
T1F8C 000:794 JLINK_WriteReg(R12, 0x00000000)  returns 0x00 (0000ms, 0400ms total)
T1F8C 000:794 JLINK_WriteReg(R13 (SP), 0x20001000)  returns 0x00 (0000ms, 0400ms total)
T1F8C 000:794 JLINK_WriteReg(R14, 0x20000001)  returns 0x00 (0000ms, 0400ms total)
T1F8C 000:794 JLINK_WriteReg(R15 (PC), 0x20000020)  returns 0x00 (0000ms, 0400ms total)
T1F8C 000:794 JLINK_WriteReg(XPSR, 0x01000000)  returns 0x00 (0000ms, 0400ms total)
T1F8C 000:794 JLINK_WriteReg(MSP, 0x20001000)  returns 0x00 (0000ms, 0400ms total)
T1F8C 000:794 JLINK_WriteReg(PSP, 0x20001000)  returns 0x00 (0000ms, 0400ms total)
T1F8C 000:794 JLINK_WriteReg(CFBP, 0x00000000)  returns 0x00 (0000ms, 0400ms total)
T1F8C 000:794 JLINK_SetBPEx(Addr = 0x20000000, Type = 0xFFFFFFF2)  returns 0x00000008 (0000ms, 0400ms total)
T1F8C 000:794 JLINK_Go() -- CPU_ReadMem(4 bytes @ 0xE0001000) (0004ms, 0404ms total)
T1F8C 000:798 JLINK_IsHalted() -- CPU_ReadMem(2 bytes @ 0x20000000)  returns TRUE (0004ms, 0408ms total)
T1F8C 000:802 JLINK_ReadReg(R15 (PC))  returns 0x20000000 (0001ms, 0405ms total)
T1F8C 000:803 JLINK_ClrBPEx(BPHandle = 0x00000008)  returns 0x00 (0000ms, 0405ms total)
T1F8C 000:803 JLINK_ReadReg(R0)  returns 0x00000001 (0000ms, 0405ms total)
T1F8C 000:803 JLINK_WriteReg(R0, 0x08001800)  returns 0x00 (0000ms, 0405ms total)
T1F8C 000:803 JLINK_WriteReg(R1, 0x00000800)  returns 0x00 (0000ms, 0405ms total)
T1F8C 000:803 JLINK_WriteReg(R2, 0x000000FF)  returns 0x00 (0000ms, 0405ms total)
T1F8C 000:803 JLINK_WriteReg(R3, 0x00000000)  returns 0x00 (0000ms, 0405ms total)
T1F8C 000:803 JLINK_WriteReg(R4, 0x00000000)  returns 0x00 (0000ms, 0405ms total)
T1F8C 000:803 JLINK_WriteReg(R5, 0x00000000)  returns 0x00 (0000ms, 0405ms total)
T1F8C 000:803 JLINK_WriteReg(R6, 0x00000000)  returns 0x00 (0000ms, 0405ms total)
T1F8C 000:803 JLINK_WriteReg(R7, 0x00000000)  returns 0x00 (0000ms, 0405ms total)
T1F8C 000:803 JLINK_WriteReg(R8, 0x00000000)  returns 0x00 (0000ms, 0405ms total)
T1F8C 000:803 JLINK_WriteReg(R9, 0x200002B4)  returns 0x00 (0000ms, 0405ms total)
T1F8C 000:803 JLINK_WriteReg(R10, 0x00000000)  returns 0x00 (0000ms, 0405ms total)
T1F8C 000:803 JLINK_WriteReg(R11, 0x00000000)  returns 0x00 (0000ms, 0405ms total)
T1F8C 000:804 JLINK_WriteReg(R12, 0x00000000)  returns 0x00 (0000ms, 0406ms total)
T1F8C 000:804 JLINK_WriteReg(R13 (SP), 0x20001000)  returns 0x00 (0000ms, 0406ms total)
T1F8C 000:804 JLINK_WriteReg(R14, 0x20000001)  returns 0x00 (0000ms, 0406ms total)
T1F8C 000:804 JLINK_WriteReg(R15 (PC), 0x20000126)  returns 0x00 (0000ms, 0406ms total)
T1F8C 000:804 JLINK_WriteReg(XPSR, 0x01000000)  returns 0x00 (0000ms, 0406ms total)
T1F8C 000:804 JLINK_WriteReg(MSP, 0x20001000)  returns 0x00 (0000ms, 0406ms total)
T1F8C 000:804 JLINK_WriteReg(PSP, 0x20001000)  returns 0x00 (0000ms, 0406ms total)
T1F8C 000:804 JLINK_WriteReg(CFBP, 0x00000000)  returns 0x00 (0000ms, 0406ms total)
T1F8C 000:804 JLINK_SetBPEx(Addr = 0x20000000, Type = 0xFFFFFFF2)  returns 0x00000009 (0000ms, 0406ms total)
T1F8C 000:804 JLINK_Go() -- CPU_ReadMem(4 bytes @ 0xE0001000) (0003ms, 0409ms total)
T1F8C 000:808 JLINK_IsHalted()  returns FALSE (0001ms, 0411ms total)
T1F8C 000:812 JLINK_IsHalted()  returns FALSE (0001ms, 0411ms total)
T1F8C 000:814 JLINK_IsHalted()  returns FALSE (0001ms, 0411ms total)
T1F8C 000:816 JLINK_IsHalted()  returns FALSE (0001ms, 0411ms total)
T1F8C 000:818 JLINK_IsHalted()  returns FALSE (0001ms, 0411ms total)
T1F8C 000:822 JLINK_IsHalted()  returns FALSE (0001ms, 0411ms total)
T1F8C 000:824 JLINK_IsHalted()  returns FALSE (0001ms, 0411ms total)
T1F8C 000:826 JLINK_IsHalted()  returns FALSE (0001ms, 0411ms total)
T1F8C 000:828 JLINK_IsHalted()  returns FALSE (0001ms, 0411ms total)
T1F8C 000:830 JLINK_IsHalted()  returns FALSE (0001ms, 0411ms total)
T1F8C 000:832 JLINK_IsHalted()  returns FALSE (0001ms, 0411ms total)
T1F8C 000:834 JLINK_IsHalted()  returns FALSE (0001ms, 0411ms total)
T1F8C 000:836 JLINK_IsHalted()  returns FALSE (0001ms, 0411ms total)
T1F8C 000:838 JLINK_IsHalted()  returns FALSE (0001ms, 0411ms total)
T1F8C 000:840 JLINK_IsHalted() -- CPU_ReadMem(2 bytes @ 0x20000000)  returns TRUE (0005ms, 0415ms total)
T1F8C 000:845 JLINK_ReadReg(R15 (PC))  returns 0x20000000 (0000ms, 0410ms total)
T1F8C 000:845 JLINK_ClrBPEx(BPHandle = 0x00000009)  returns 0x00 (0000ms, 0410ms total)
T1F8C 000:845 JLINK_ReadReg(R0)  returns 0x00000000 (0000ms, 0410ms total)
T1F8C 000:846 JLINK_WriteReg(R0, 0x08002000)  returns 0x00 (0000ms, 0410ms total)
T1F8C 000:846 JLINK_WriteReg(R1, 0x00000800)  returns 0x00 (0000ms, 0410ms total)
T1F8C 000:846 JLINK_WriteReg(R2, 0x000000FF)  returns 0x00 (0000ms, 0410ms total)
T1F8C 000:846 JLINK_WriteReg(R3, 0x00000000)  returns 0x00 (0000ms, 0410ms total)
T1F8C 000:846 JLINK_WriteReg(R4, 0x00000000)  returns 0x00 (0000ms, 0410ms total)
T1F8C 000:846 JLINK_WriteReg(R5, 0x00000000)  returns 0x00 (0000ms, 0410ms total)
T1F8C 000:846 JLINK_WriteReg(R6, 0x00000000)  returns 0x00 (0000ms, 0410ms total)
T1F8C 000:846 JLINK_WriteReg(R7, 0x00000000)  returns 0x00 (0000ms, 0410ms total)
T1F8C 000:846 JLINK_WriteReg(R8, 0x00000000)  returns 0x00 (0000ms, 0410ms total)
T1F8C 000:847 JLINK_WriteReg(R9, 0x200002B4)  returns 0x00 (0000ms, 0411ms total)
T1F8C 000:847 JLINK_WriteReg(R10, 0x00000000)  returns 0x00 (0000ms, 0411ms total)
T1F8C 000:847 JLINK_WriteReg(R11, 0x00000000)  returns 0x00 (0000ms, 0411ms total)
T1F8C 000:847 JLINK_WriteReg(R12, 0x00000000)  returns 0x00 (0000ms, 0411ms total)
T1F8C 000:847 JLINK_WriteReg(R13 (SP), 0x20001000)  returns 0x00 (0000ms, 0411ms total)
T1F8C 000:847 JLINK_WriteReg(R14, 0x20000001)  returns 0x00 (0000ms, 0411ms total)
T1F8C 000:847 JLINK_WriteReg(R15 (PC), 0x20000020)  returns 0x00 (0000ms, 0411ms total)
T1F8C 000:847 JLINK_WriteReg(XPSR, 0x01000000)  returns 0x00 (0000ms, 0411ms total)
T1F8C 000:847 JLINK_WriteReg(MSP, 0x20001000)  returns 0x00 (0000ms, 0411ms total)
T1F8C 000:847 JLINK_WriteReg(PSP, 0x20001000)  returns 0x00 (0000ms, 0411ms total)
T1F8C 000:847 JLINK_WriteReg(CFBP, 0x00000000)  returns 0x00 (0000ms, 0411ms total)
T1F8C 000:847 JLINK_SetBPEx(Addr = 0x20000000, Type = 0xFFFFFFF2)  returns 0x0000000A (0000ms, 0411ms total)
T1F8C 000:847 JLINK_Go() -- CPU_ReadMem(4 bytes @ 0xE0001000) (0004ms, 0415ms total)
T1F8C 000:851 JLINK_IsHalted() -- CPU_ReadMem(2 bytes @ 0x20000000)  returns TRUE (0004ms, 0419ms total)
T1F8C 000:855 JLINK_ReadReg(R15 (PC))  returns 0x20000000 (0001ms, 0416ms total)
T1F8C 000:856 JLINK_ClrBPEx(BPHandle = 0x0000000A)  returns 0x00 (0000ms, 0416ms total)
T1F8C 000:856 JLINK_ReadReg(R0)  returns 0x00000001 (0000ms, 0416ms total)
T1F8C 000:856 JLINK_WriteReg(R0, 0x08002000)  returns 0x00 (0000ms, 0416ms total)
T1F8C 000:856 JLINK_WriteReg(R1, 0x00000800)  returns 0x00 (0000ms, 0416ms total)
T1F8C 000:856 JLINK_WriteReg(R2, 0x000000FF)  returns 0x00 (0000ms, 0416ms total)
T1F8C 000:856 JLINK_WriteReg(R3, 0x00000000)  returns 0x00 (0000ms, 0416ms total)
T1F8C 000:856 JLINK_WriteReg(R4, 0x00000000)  returns 0x00 (0000ms, 0416ms total)
T1F8C 000:856 JLINK_WriteReg(R5, 0x00000000)  returns 0x00 (0000ms, 0416ms total)
T1F8C 000:856 JLINK_WriteReg(R6, 0x00000000)  returns 0x00 (0000ms, 0416ms total)
T1F8C 000:856 JLINK_WriteReg(R7, 0x00000000)  returns 0x00 (0000ms, 0416ms total)
T1F8C 000:856 JLINK_WriteReg(R8, 0x00000000)  returns 0x00 (0000ms, 0416ms total)
T1F8C 000:856 JLINK_WriteReg(R9, 0x200002B4)  returns 0x00 (0000ms, 0416ms total)
T1F8C 000:856 JLINK_WriteReg(R10, 0x00000000)  returns 0x00 (0000ms, 0416ms total)
T1F8C 000:856 JLINK_WriteReg(R11, 0x00000000)  returns 0x00 (0001ms, 0417ms total)
T1F8C 000:857 JLINK_WriteReg(R12, 0x00000000)  returns 0x00 (0000ms, 0417ms total)
T1F8C 000:857 JLINK_WriteReg(R13 (SP), 0x20001000)  returns 0x00 (0000ms, 0417ms total)
T1F8C 000:857 JLINK_WriteReg(R14, 0x20000001)  returns 0x00 (0000ms, 0417ms total)
T1F8C 000:857 JLINK_WriteReg(R15 (PC), 0x20000126)  returns 0x00 (0000ms, 0417ms total)
T1F8C 000:857 JLINK_WriteReg(XPSR, 0x01000000)  returns 0x00 (0000ms, 0417ms total)
T1F8C 000:857 JLINK_WriteReg(MSP, 0x20001000)  returns 0x00 (0000ms, 0417ms total)
T1F8C 000:857 JLINK_WriteReg(PSP, 0x20001000)  returns 0x00 (0000ms, 0417ms total)
T1F8C 000:857 JLINK_WriteReg(CFBP, 0x00000000)  returns 0x00 (0000ms, 0417ms total)
T1F8C 000:857 JLINK_SetBPEx(Addr = 0x20000000, Type = 0xFFFFFFF2)  returns 0x0000000B (0000ms, 0417ms total)
T1F8C 000:857 JLINK_Go() -- CPU_ReadMem(4 bytes @ 0xE0001000) (0004ms, 0421ms total)
T1F8C 000:861 JLINK_IsHalted()  returns FALSE (0001ms, 0422ms total)
T1F8C 000:863 JLINK_IsHalted()  returns FALSE (0001ms, 0422ms total)
T1F8C 000:865 JLINK_IsHalted()  returns FALSE (0001ms, 0422ms total)
T1F8C 000:867 JLINK_IsHalted()  returns FALSE (0001ms, 0422ms total)
T1F8C 000:869 JLINK_IsHalted()  returns FALSE (0001ms, 0422ms total)
T1F8C 000:871 JLINK_IsHalted()  returns FALSE (0001ms, 0422ms total)
T1F8C 000:873 JLINK_IsHalted()  returns FALSE (0001ms, 0422ms total)
T1F8C 000:875 JLINK_IsHalted()  returns FALSE (0001ms, 0422ms total)
T1F8C 000:877 JLINK_IsHalted()  returns FALSE (0001ms, 0422ms total)
T1F8C 000:879 JLINK_IsHalted()  returns FALSE (0000ms, 0421ms total)
T1F8C 000:880 JLINK_IsHalted()  returns FALSE (0000ms, 0421ms total)
T1F8C 000:881 JLINK_IsHalted()  returns FALSE (0001ms, 0422ms total)
T1F8C 000:883 JLINK_IsHalted()  returns FALSE (0001ms, 0422ms total)
T1F8C 000:885 JLINK_IsHalted()  returns FALSE (0001ms, 0422ms total)
T1F8C 000:887 JLINK_IsHalted()  returns FALSE (0001ms, 0422ms total)
T1F8C 000:889 JLINK_IsHalted()  returns FALSE (0000ms, 0421ms total)
T1F8C 000:890 JLINK_IsHalted()  returns FALSE (0001ms, 0422ms total)
T1F8C 000:892 JLINK_IsHalted() -- CPU_ReadMem(2 bytes @ 0x20000000)  returns TRUE (0005ms, 0426ms total)
T1F8C 000:897 JLINK_ReadReg(R15 (PC))  returns 0x20000000 (0000ms, 0421ms total)
T1F8C 000:897 JLINK_ClrBPEx(BPHandle = 0x0000000B)  returns 0x00 (0000ms, 0421ms total)
T1F8C 000:897 JLINK_ReadReg(R0)  returns 0x00000000 (0000ms, 0421ms total)
T1F8C 000:898 JLINK_WriteReg(R0, 0x08002800)  returns 0x00 (0000ms, 0421ms total)
T1F8C 000:898 JLINK_WriteReg(R1, 0x00000800)  returns 0x00 (0000ms, 0421ms total)
T1F8C 000:898 JLINK_WriteReg(R2, 0x000000FF)  returns 0x00 (0000ms, 0421ms total)
T1F8C 000:898 JLINK_WriteReg(R3, 0x00000000)  returns 0x00 (0000ms, 0421ms total)
T1F8C 000:898 JLINK_WriteReg(R4, 0x00000000)  returns 0x00 (0000ms, 0421ms total)
T1F8C 000:898 JLINK_WriteReg(R5, 0x00000000)  returns 0x00 (0000ms, 0421ms total)
T1F8C 000:898 JLINK_WriteReg(R6, 0x00000000)  returns 0x00 (0000ms, 0421ms total)
T1F8C 000:898 JLINK_WriteReg(R7, 0x00000000)  returns 0x00 (0000ms, 0421ms total)
T1F8C 000:898 JLINK_WriteReg(R8, 0x00000000)  returns 0x00 (0000ms, 0421ms total)
T1F8C 000:898 JLINK_WriteReg(R9, 0x200002B4)  returns 0x00 (0000ms, 0421ms total)
T1F8C 000:898 JLINK_WriteReg(R10, 0x00000000)  returns 0x00 (0001ms, 0422ms total)
T1F8C 000:899 JLINK_WriteReg(R11, 0x00000000)  returns 0x00 (0000ms, 0422ms total)
T1F8C 000:899 JLINK_WriteReg(R12, 0x00000000)  returns 0x00 (0000ms, 0422ms total)
T1F8C 000:899 JLINK_WriteReg(R13 (SP), 0x20001000)  returns 0x00 (0000ms, 0422ms total)
T1F8C 000:899 JLINK_WriteReg(R14, 0x20000001)  returns 0x00 (0000ms, 0422ms total)
T1F8C 000:899 JLINK_WriteReg(R15 (PC), 0x20000020)  returns 0x00 (0000ms, 0422ms total)
T1F8C 000:899 JLINK_WriteReg(XPSR, 0x01000000)  returns 0x00 (0000ms, 0422ms total)
T1F8C 000:899 JLINK_WriteReg(MSP, 0x20001000)  returns 0x00 (0000ms, 0422ms total)
T1F8C 000:899 JLINK_WriteReg(PSP, 0x20001000)  returns 0x00 (0000ms, 0422ms total)
T1F8C 000:899 JLINK_WriteReg(CFBP, 0x00000000)  returns 0x00 (0000ms, 0422ms total)
T1F8C 000:899 JLINK_SetBPEx(Addr = 0x20000000, Type = 0xFFFFFFF2)  returns 0x0000000C (0000ms, 0422ms total)
T1F8C 000:899 JLINK_Go() -- CPU_ReadMem(4 bytes @ 0xE0001000) (0004ms, 0426ms total)
T1F8C 000:903 JLINK_IsHalted() -- CPU_ReadMem(2 bytes @ 0x20000000)  returns TRUE (0004ms, 0430ms total)
T1F8C 000:907 JLINK_ReadReg(R15 (PC))  returns 0x20000000 (0001ms, 0427ms total)
T1F8C 000:908 JLINK_ClrBPEx(BPHandle = 0x0000000C)  returns 0x00 (0000ms, 0427ms total)
T1F8C 000:908 JLINK_ReadReg(R0)  returns 0x00000001 (0000ms, 0427ms total)
T1F8C 000:908 JLINK_WriteReg(R0, 0x08002800)  returns 0x00 (0000ms, 0427ms total)
T1F8C 000:908 JLINK_WriteReg(R1, 0x00000800)  returns 0x00 (0000ms, 0427ms total)
T1F8C 000:908 JLINK_WriteReg(R2, 0x000000FF)  returns 0x00 (0000ms, 0427ms total)
T1F8C 000:908 JLINK_WriteReg(R3, 0x00000000)  returns 0x00 (0000ms, 0427ms total)
T1F8C 000:908 JLINK_WriteReg(R4, 0x00000000)  returns 0x00 (0000ms, 0427ms total)
T1F8C 000:908 JLINK_WriteReg(R5, 0x00000000)  returns 0x00 (0000ms, 0427ms total)
T1F8C 000:908 JLINK_WriteReg(R6, 0x00000000)  returns 0x00 (0000ms, 0427ms total)
T1F8C 000:908 JLINK_WriteReg(R7, 0x00000000)  returns 0x00 (0000ms, 0427ms total)
T1F8C 000:908 JLINK_WriteReg(R8, 0x00000000)  returns 0x00 (0000ms, 0427ms total)
T1F8C 000:908 JLINK_WriteReg(R9, 0x200002B4)  returns 0x00 (0000ms, 0427ms total)
T1F8C 000:908 JLINK_WriteReg(R10, 0x00000000)  returns 0x00 (0000ms, 0427ms total)
T1F8C 000:908 JLINK_WriteReg(R11, 0x00000000)  returns 0x00 (0001ms, 0428ms total)
T1F8C 000:909 JLINK_WriteReg(R12, 0x00000000)  returns 0x00 (0000ms, 0428ms total)
T1F8C 000:909 JLINK_WriteReg(R13 (SP), 0x20001000)  returns 0x00 (0000ms, 0428ms total)
T1F8C 000:909 JLINK_WriteReg(R14, 0x20000001)  returns 0x00 (0000ms, 0428ms total)
T1F8C 000:909 JLINK_WriteReg(R15 (PC), 0x20000126)  returns 0x00 (0000ms, 0428ms total)
T1F8C 000:909 JLINK_WriteReg(XPSR, 0x01000000)  returns 0x00 (0000ms, 0428ms total)
T1F8C 000:909 JLINK_WriteReg(MSP, 0x20001000)  returns 0x00 (0000ms, 0428ms total)
T1F8C 000:909 JLINK_WriteReg(PSP, 0x20001000)  returns 0x00 (0000ms, 0428ms total)
T1F8C 000:909 JLINK_WriteReg(CFBP, 0x00000000)  returns 0x00 (0000ms, 0428ms total)
T1F8C 000:909 JLINK_SetBPEx(Addr = 0x20000000, Type = 0xFFFFFFF2)  returns 0x0000000D (0000ms, 0428ms total)
T1F8C 000:909 JLINK_Go() -- CPU_ReadMem(4 bytes @ 0xE0001000) (0003ms, 0431ms total)
T1F8C 000:913 JLINK_IsHalted()  returns FALSE (0001ms, 0433ms total)
T1F8C 000:917 JLINK_IsHalted()  returns FALSE (0001ms, 0433ms total)
T1F8C 000:919 JLINK_IsHalted()  returns FALSE (0001ms, 0433ms total)
T1F8C 000:921 JLINK_IsHalted()  returns FALSE (0001ms, 0433ms total)
T1F8C 000:923 JLINK_IsHalted()  returns FALSE (0001ms, 0433ms total)
T1F8C 000:925 JLINK_IsHalted()  returns FALSE (0001ms, 0433ms total)
T1F8C 000:929 JLINK_IsHalted()  returns FALSE (0001ms, 0433ms total)
T1F8C 000:931 JLINK_IsHalted()  returns FALSE (0001ms, 0433ms total)
T1F8C 000:933 JLINK_IsHalted()  returns FALSE (0001ms, 0433ms total)
T1F8C 000:935 JLINK_IsHalted()  returns FALSE (0001ms, 0433ms total)
T1F8C 000:937 JLINK_IsHalted() -- CPU_ReadMem(2 bytes @ 0x20000000)  returns TRUE (0005ms, 0437ms total)
T1F8C 000:942 JLINK_ReadReg(R15 (PC))  returns 0x20000000 (0000ms, 0432ms total)
T1F8C 000:942 JLINK_ClrBPEx(BPHandle = 0x0000000D)  returns 0x00 (0000ms, 0432ms total)
T1F8C 000:942 JLINK_ReadReg(R0)  returns 0x00000000 (0000ms, 0432ms total)
T1F8C 000:943 JLINK_WriteReg(R0, 0x08003000)  returns 0x00 (0000ms, 0432ms total)
T1F8C 000:943 JLINK_WriteReg(R1, 0x00000800)  returns 0x00 (0000ms, 0432ms total)
T1F8C 000:943 JLINK_WriteReg(R2, 0x000000FF)  returns 0x00 (0000ms, 0432ms total)
T1F8C 000:943 JLINK_WriteReg(R3, 0x00000000)  returns 0x00 (0000ms, 0432ms total)
T1F8C 000:943 JLINK_WriteReg(R4, 0x00000000)  returns 0x00 (0000ms, 0432ms total)
T1F8C 000:943 JLINK_WriteReg(R5, 0x00000000)  returns 0x00 (0000ms, 0432ms total)
T1F8C 000:943 JLINK_WriteReg(R6, 0x00000000)  returns 0x00 (0000ms, 0432ms total)
T1F8C 000:943 JLINK_WriteReg(R7, 0x00000000)  returns 0x00 (0000ms, 0432ms total)
T1F8C 000:943 JLINK_WriteReg(R8, 0x00000000)  returns 0x00 (0001ms, 0433ms total)
T1F8C 000:944 JLINK_WriteReg(R9, 0x200002B4)  returns 0x00 (0000ms, 0433ms total)
T1F8C 000:944 JLINK_WriteReg(R10, 0x00000000)  returns 0x00 (0000ms, 0433ms total)
T1F8C 000:944 JLINK_WriteReg(R11, 0x00000000)  returns 0x00 (0000ms, 0433ms total)
T1F8C 000:944 JLINK_WriteReg(R12, 0x00000000)  returns 0x00 (0000ms, 0433ms total)
T1F8C 000:944 JLINK_WriteReg(R13 (SP), 0x20001000)  returns 0x00 (0000ms, 0433ms total)
T1F8C 000:944 JLINK_WriteReg(R14, 0x20000001)  returns 0x00 (0000ms, 0433ms total)
T1F8C 000:944 JLINK_WriteReg(R15 (PC), 0x20000020)  returns 0x00 (0000ms, 0433ms total)
T1F8C 000:944 JLINK_WriteReg(XPSR, 0x01000000)  returns 0x00 (0000ms, 0433ms total)
T1F8C 000:944 JLINK_WriteReg(MSP, 0x20001000)  returns 0x00 (0000ms, 0433ms total)
T1F8C 000:944 JLINK_WriteReg(PSP, 0x20001000)  returns 0x00 (0000ms, 0433ms total)
T1F8C 000:944 JLINK_WriteReg(CFBP, 0x00000000)  returns 0x00 (0000ms, 0433ms total)
T1F8C 000:944 JLINK_SetBPEx(Addr = 0x20000000, Type = 0xFFFFFFF2)  returns 0x0000000E (0000ms, 0433ms total)
T1F8C 000:944 JLINK_Go() -- CPU_ReadMem(4 bytes @ 0xE0001000) (0004ms, 0437ms total)
T1F8C 000:948 JLINK_IsHalted() -- CPU_ReadMem(2 bytes @ 0x20000000)  returns TRUE (0004ms, 0441ms total)
T1F8C 000:953 JLINK_ReadReg(R15 (PC))  returns 0x20000000 (0000ms, 0437ms total)
T1F8C 000:953 JLINK_ClrBPEx(BPHandle = 0x0000000E)  returns 0x00 (0000ms, 0437ms total)
T1F8C 000:953 JLINK_ReadReg(R0)  returns 0x00000001 (0000ms, 0437ms total)
T1F8C 000:953 JLINK_WriteReg(R0, 0x08003000)  returns 0x00 (0000ms, 0437ms total)
T1F8C 000:953 JLINK_WriteReg(R1, 0x00000800)  returns 0x00 (0000ms, 0437ms total)
T1F8C 000:953 JLINK_WriteReg(R2, 0x000000FF)  returns 0x00 (0000ms, 0437ms total)
T1F8C 000:953 JLINK_WriteReg(R3, 0x00000000)  returns 0x00 (0000ms, 0437ms total)
T1F8C 000:953 JLINK_WriteReg(R4, 0x00000000)  returns 0x00 (0000ms, 0437ms total)
T1F8C 000:953 JLINK_WriteReg(R5, 0x00000000)  returns 0x00 (0000ms, 0437ms total)
T1F8C 000:953 JLINK_WriteReg(R6, 0x00000000)  returns 0x00 (0000ms, 0437ms total)
T1F8C 000:953 JLINK_WriteReg(R7, 0x00000000)  returns 0x00 (0000ms, 0437ms total)
T1F8C 000:953 JLINK_WriteReg(R8, 0x00000000)  returns 0x00 (0000ms, 0437ms total)
T1F8C 000:953 JLINK_WriteReg(R9, 0x200002B4)  returns 0x00 (0000ms, 0437ms total)
T1F8C 000:953 JLINK_WriteReg(R10, 0x00000000)  returns 0x00 (0000ms, 0437ms total)
T1F8C 000:953 JLINK_WriteReg(R11, 0x00000000)  returns 0x00 (0001ms, 0438ms total)
T1F8C 000:954 JLINK_WriteReg(R12, 0x00000000)  returns 0x00 (0000ms, 0438ms total)
T1F8C 000:954 JLINK_WriteReg(R13 (SP), 0x20001000)  returns 0x00 (0000ms, 0438ms total)
T1F8C 000:954 JLINK_WriteReg(R14, 0x20000001)  returns 0x00 (0000ms, 0438ms total)
T1F8C 000:954 JLINK_WriteReg(R15 (PC), 0x20000126)  returns 0x00 (0000ms, 0438ms total)
T1F8C 000:954 JLINK_WriteReg(XPSR, 0x01000000)  returns 0x00 (0000ms, 0438ms total)
T1F8C 000:954 JLINK_WriteReg(MSP, 0x20001000)  returns 0x00 (0000ms, 0438ms total)
T1F8C 000:954 JLINK_WriteReg(PSP, 0x20001000)  returns 0x00 (0000ms, 0438ms total)
T1F8C 000:954 JLINK_WriteReg(CFBP, 0x00000000)  returns 0x00 (0000ms, 0438ms total)
T1F8C 000:954 JLINK_SetBPEx(Addr = 0x20000000, Type = 0xFFFFFFF2)  returns 0x0000000F (0000ms, 0438ms total)
T1F8C 000:954 JLINK_Go() -- CPU_ReadMem(4 bytes @ 0xE0001000) (0004ms, 0442ms total)
T1F8C 000:958 JLINK_IsHalted()  returns FALSE (0001ms, 0443ms total)
T1F8C 000:960 JLINK_IsHalted()  returns FALSE (0001ms, 0443ms total)
T1F8C 000:962 JLINK_IsHalted()  returns FALSE (0001ms, 0443ms total)
T1F8C 000:964 JLINK_IsHalted()  returns FALSE (0001ms, 0443ms total)
T1F8C 000:966 JLINK_IsHalted()  returns FALSE (0001ms, 0443ms total)
T1F8C 000:968 JLINK_IsHalted()  returns FALSE (0001ms, 0443ms total)
T1F8C 000:970 JLINK_IsHalted()  returns FALSE (0001ms, 0443ms total)
T1F8C 000:972 JLINK_IsHalted()  returns FALSE (0001ms, 0443ms total)
T1F8C 000:974 JLINK_IsHalted()  returns FALSE (0001ms, 0443ms total)
T1F8C 000:976 JLINK_IsHalted()  returns FALSE (0001ms, 0443ms total)
T1F8C 000:978 JLINK_IsHalted()  returns FALSE (0001ms, 0443ms total)
T1F8C 000:980 JLINK_IsHalted() -- CPU_ReadMem(2 bytes @ 0x20000000)  returns TRUE (0005ms, 0447ms total)
T1F8C 000:985 JLINK_ReadReg(R15 (PC))  returns 0x20000000 (0000ms, 0442ms total)
T1F8C 000:985 JLINK_ClrBPEx(BPHandle = 0x0000000F)  returns 0x00 (0000ms, 0442ms total)
T1F8C 000:985 JLINK_ReadReg(R0)  returns 0x00000000 (0000ms, 0442ms total)
T1F8C 000:986 JLINK_WriteReg(R0, 0x08003800)  returns 0x00 (0000ms, 0442ms total)
T1F8C 000:986 JLINK_WriteReg(R1, 0x00000800)  returns 0x00 (0000ms, 0442ms total)
T1F8C 000:986 JLINK_WriteReg(R2, 0x000000FF)  returns 0x00 (0000ms, 0442ms total)
T1F8C 000:986 JLINK_WriteReg(R3, 0x00000000)  returns 0x00 (0000ms, 0442ms total)
T1F8C 000:986 JLINK_WriteReg(R4, 0x00000000)  returns 0x00 (0000ms, 0442ms total)
T1F8C 000:986 JLINK_WriteReg(R5, 0x00000000)  returns 0x00 (0000ms, 0442ms total)
T1F8C 000:986 JLINK_WriteReg(R6, 0x00000000)  returns 0x00 (0000ms, 0442ms total)
T1F8C 000:986 JLINK_WriteReg(R7, 0x00000000)  returns 0x00 (0000ms, 0442ms total)
T1F8C 000:986 JLINK_WriteReg(R8, 0x00000000)  returns 0x00 (0000ms, 0442ms total)
T1F8C 000:986 JLINK_WriteReg(R9, 0x200002B4)  returns 0x00 (0000ms, 0442ms total)
T1F8C 000:986 JLINK_WriteReg(R10, 0x00000000)  returns 0x00 (0000ms, 0442ms total)
T1F8C 000:986 JLINK_WriteReg(R11, 0x00000000)  returns 0x00 (0000ms, 0442ms total)
T1F8C 000:986 JLINK_WriteReg(R12, 0x00000000)  returns 0x00 (0001ms, 0443ms total)
T1F8C 000:987 JLINK_WriteReg(R13 (SP), 0x20001000)  returns 0x00 (0000ms, 0443ms total)
T1F8C 000:987 JLINK_WriteReg(R14, 0x20000001)  returns 0x00 (0000ms, 0443ms total)
T1F8C 000:987 JLINK_WriteReg(R15 (PC), 0x20000020)  returns 0x00 (0000ms, 0443ms total)
T1F8C 000:987 JLINK_WriteReg(XPSR, 0x01000000)  returns 0x00 (0000ms, 0443ms total)
T1F8C 000:987 JLINK_WriteReg(MSP, 0x20001000)  returns 0x00 (0000ms, 0443ms total)
T1F8C 000:987 JLINK_WriteReg(PSP, 0x20001000)  returns 0x00 (0000ms, 0443ms total)
T1F8C 000:987 JLINK_WriteReg(CFBP, 0x00000000)  returns 0x00 (0000ms, 0443ms total)
